T0884 000:009.683   SEGGER J-Link V9.42 Log File
T0884 000:009.809   DLL Compiled: May  6 2026 12:25:27
T0884 000:009.820   Logging started @ 2026-05-31 04:06
T0884 000:009.831   Process: D:\HRAppStoreDownload\keil5\UV4\UV4.exe
T0884 000:009.850 - 9.842ms 
T0884 000:009.864 JLINK_SetWarnOutHandler(...)
T0884 000:009.878 - 0.014ms 
T0884 000:009.892 JLINK_OpenEx(...)
T0884 000:015.811   Firmware: J-Link V9 compiled May  7 2021 16:26:12
T0884 000:016.400   Firmware: J-Link V9 compiled May  7 2021 16:26:12
T0884 000:016.510   Decompressing FW timestamp took 83 us
T0884 000:022.141   Hardware: V9.70
T0884 000:022.163   S/N: 609799999
T0884 000:022.177   OEM: SEGGER
T0884 000:022.191   Feature(s): GDB, RDI, FlashBP, FlashDL, JFlash
T0884 000:022.870   Bootloader: (FW returned invalid version)
T0884 000:023.598   TELNET listener socket opened on port 19021
T0884 000:023.798   WEBSRV WEBSRV_Init(): Starting webserver thread(s)
T0884 000:023.940   WEBSRV Webserver running on local port 19080
T0884 000:024.140   Looking for J-Link GUI Server exe at: D:\HRAppStoreDownload\keil5\ARM\Segger\JLinkGUIServer.exe
T0884 000:024.288   Looking for J-Link GUI Server exe at: C:\Program Files\SEGGER\JLink_V942\JLinkGUIServer.exe
T0884 000:024.338   Forking J-Link GUI Server: C:\Program Files\SEGGER\JLink_V942\JLinkGUIServer.exe
T0884 000:028.387   J-Link GUI Server info: "J-Link GUI server V9.42 "
T0884 000:028.585 - 18.684ms returns "O.K."
T0884 000:028.623 JLINK_GetEmuCaps()
T0884 000:028.637 - 0.011ms returns 0xB9FF7BBF
T0884 000:028.649 JLINK_TIF_GetAvailable(...)
T0884 000:028.843 - 0.194ms 
T0884 000:028.856 JLINK_SetErrorOutHandler(...)
T0884 000:028.866 - 0.010ms 
T0884 000:028.893 JLINK_ExecCommand("ProjectFile = "D:\Desktop\A_T-robot\robot_arm_3d\MDK-ARM\JLinkSettings.ini"", ...). 
T0884 000:040.936   Ref file found at: D:\HRAppStoreDownload\keil5\ARM\Segger\JLinkDevices.ref
T0884 000:041.053   REF file references invalid XML file: C:\Program Files\SEGGER\JLink_V942\JLinkDevices.xml
T0884 000:041.232 - 12.340ms returns 0x00
T0884 000:041.272 JLINK_ExecCommand("Device = STM32F407VETx", ...). 
T0884 000:042.167   Flash bank @ 0x08000000: SFL: Parsing sectorization info from ELF file
T0884 000:042.189     FlashDevice.SectorInfo[0]: .SectorSize = 0x00004000, .SectorStartAddr = 0x08000000
T0884 000:042.204     FlashDevice.SectorInfo[1]: .SectorSize = 0x00010000, .SectorStartAddr = 0x08010000
T0884 000:042.218     FlashDevice.SectorInfo[2]: .SectorSize = 0x000D0000, .SectorStartAddr = 0x08020000
T0884 000:042.233   FlashBank @0x08000000: Sectorization info from SFL ELF file ignored because sectorization override from DLL / XML file is active.
T0884 000:042.398   Flash bank @ 0x08000000: SFL: Parsing sectorization info from ELF file
T0884 000:042.414     FlashDevice.SectorInfo[0]: .SectorSize = 0x00004000, .SectorStartAddr = 0x08000000
T0884 000:042.429     FlashDevice.SectorInfo[1]: .SectorSize = 0x00010000, .SectorStartAddr = 0x08010000
T0884 000:042.444     FlashDevice.SectorInfo[2]: .SectorSize = 0x000D0000, .SectorStartAddr = 0x08020000
T0884 000:042.460   FlashBank @0x1FFF7800: Sectorization info from SFL ELF file ignored because sectorization override from DLL / XML file is active.
T0884 000:042.513   Device "STM32F407VE" selected.
T0884 000:042.906 - 1.634ms returns 0x00
T0884 000:042.932   ERROR: Unknown command
T0884 000:042.949 JLINK_GetHardwareVersion()
T0884 000:042.960 - 0.010ms returns 97000
T0884 000:042.971 JLINK_GetDLLVersion()
T0884 000:042.981 - 0.010ms returns 94200
T0884 000:042.992 JLINK_GetOEMString(...)
T0884 000:043.003 JLINK_GetFirmwareString(...)
T0884 000:043.013 - 0.010ms 
T0884 000:043.040 JLINK_GetDLLVersion()
T0884 000:043.050 - 0.010ms returns 94200
T0884 000:043.062 JLINK_GetCompileDateTime()
T0884 000:043.071 - 0.009ms 
T0884 000:043.084 JLINK_GetFirmwareString(...)
T0884 000:043.094 - 0.009ms 
T0884 000:043.105 JLINK_GetHardwareVersion()
T0884 000:043.115 - 0.009ms returns 97000
T0884 000:043.126 JLINK_GetSN()
T0884 000:043.136 - 0.009ms returns 609799999
T0884 000:043.170 JLINK_GetOEMString(...)
T0884 000:043.188 JLINK_TIF_Select(JLINKARM_TIF_SWD)
T0884 000:044.137 - 0.950ms returns 0x00
T0884 000:044.160 JLINK_HasError()
T0884 000:044.177 JLINK_SetSpeed(5000)
T0884 000:044.359 - 0.182ms 
T0884 000:044.382 JLINK_GetId()
T0884 000:044.834   InitTarget() start
T0884 000:044.867    J-Link Script File: Executing InitTarget()
T0884 000:045.132   SWD selected. Executing JTAG -> SWD switching sequence.
T0884 000:046.417   DAP initialized successfully.
T0884 000:050.134   InitTarget() end - Took 5.26ms
T0884 000:050.627   Found SW-DP with ID 0x2BA01477
T0884 000:052.273   DPIDR: 0x2BA01477
T0884 000:052.297   CoreSight SoC-400 or earlier
T0884 000:052.316   Scanning AP map to find all available APs
T0884 000:052.720   AP[1]: Stopped AP scan as end of AP map has been reached
T0884 000:052.741   AP[0]: AHB-AP (IDR: 0x24770011, ADDR: 0x00000000)
T0884 000:052.758   Iterating through AP map to find AHB-AP to use
T0884 000:053.511   AP[0]: Core found
T0884 000:053.528   AP[0]: AHB-AP ROM base: 0xE00FF000
T0884 000:053.984   CPUID register: 0x410FC241. Implementer code: 0x41 (ARM)
T0884 000:054.004   Found Cortex-M4 r0p1, Little endian.
T0884 000:054.227   -- Max. mem block: 0x00010E60
T0884 000:054.540   CPU_ReadMem(4 bytes @ 0xE000EDF0)
T0884 000:054.943   CPU_ReadMem(4 bytes @ 0xE0002000)
T0884 000:055.193   FPUnit: 6 code (BP) slots and 2 literal slots
T0884 000:055.211   CPU_ReadMem(4 bytes @ 0xE000EDFC)
T0884 000:055.480   CPU_WriteMem(4 bytes @ 0xE000EDFC)
T0884 000:055.767   CPU_ReadMem(4 bytes @ 0xE0001000)
T0884 000:056.045   CPU_WriteMem(4 bytes @ 0xE0001000)
T0884 000:056.320   CPU_ReadMem(4 bytes @ 0xE000ED88)
T0884 000:056.526   CPU_WriteMem(4 bytes @ 0xE000ED88)
T0884 000:056.817   CPU_ReadMem(4 bytes @ 0xE000ED88)
T0884 000:057.098   CPU_WriteMem(4 bytes @ 0xE000ED88)
T0884 000:057.333   CoreSight components:
T0884 000:057.356   ROMTbl[0] @ E00FF000
T0884 000:057.375   CPU_ReadMem(64 bytes @ 0xE00FF000)
T0884 000:057.874   CPU_ReadMem(32 bytes @ 0xE000EFE0)
T0884 000:058.395   [0][0]: E000E000 CID B105E00D PID 000BB00C SCS-M7
T0884 000:058.436   CPU_ReadMem(32 bytes @ 0xE0001FE0)
T0884 000:058.875   [0][1]: E0001000 CID B105E00D PID 003BB002 DWT
T0884 000:058.898   CPU_ReadMem(32 bytes @ 0xE0002FE0)
T0884 000:059.257   [0][2]: E0002000 CID B105E00D PID 002BB003 FPB
T0884 000:059.272   CPU_ReadMem(32 bytes @ 0xE0000FE0)
T0884 000:059.602   [0][3]: E0000000 CID B105E00D PID 003BB001 ITM
T0884 000:059.618   CPU_ReadMem(32 bytes @ 0xE0040FE0)
T0884 000:060.100   [0][4]: E0040000 CID B105900D PID 000BB9A1 TPIU
T0884 000:060.118   CPU_ReadMem(32 bytes @ 0xE0041FE0)
T0884 000:060.448   [0][5]: E0041000 CID B105900D PID 000BB925 ETM
T0884 000:060.678 - 16.295ms returns 0x2BA01477
T0884 000:060.698 JLINK_GetDLLVersion()
T0884 000:060.708 - 0.010ms returns 94200
T0884 000:060.750 JLINK_CORE_GetFound()
T0884 000:060.761 - 0.011ms returns 0xE0000FF
T0884 000:060.772 JLINK_GetDebugInfo(0x100 = JLINKARM_ROM_TABLE_ADDR_INDEX)
T0884 000:060.783   Value=0xE00FF000
T0884 000:060.797 - 0.025ms returns 0
T0884 000:060.812 JLINK_GetDebugInfo(0x100 = JLINKARM_ROM_TABLE_ADDR_INDEX)
T0884 000:060.822   Value=0xE00FF000
T0884 000:060.836 - 0.023ms returns 0
T0884 000:060.846 JLINK_GetDebugInfo(0x101 = JLINKARM_DEBUG_INFO_ETM_ADDR_INDEX)
T0884 000:060.855   Value=0xE0041000
T0884 000:060.869 - 0.023ms returns 0
T0884 000:060.883 JLINK_ReadMemEx(0xE0041FD0, 0x20 Bytes, Flags = 0x02000004)
T0884 000:060.910   CPU_ReadMem(32 bytes @ 0xE0041FD0)
T0884 000:061.293   Data:  04 00 00 00 00 00 00 00 00 00 00 00 00 00 00 00 ...
T0884 000:061.323 - 0.440ms returns 32 (0x20)
T0884 000:061.334 JLINK_GetDebugInfo(0x102 = JLINKARM_DEBUG_INFO_MTB_ADDR_INDEX)
T0884 000:061.343   Value=0x00000000
T0884 000:061.357 - 0.023ms returns 0
T0884 000:061.367 JLINK_GetDebugInfo(0x103 = JLINKARM_DEBUG_INFO_TPIU_ADDR_INDEX)
T0884 000:061.377   Value=0xE0040000
T0884 000:061.390 - 0.023ms returns 0
T0884 000:061.401 JLINK_GetDebugInfo(0x104 = JLINKARM_DEBUG_INFO_ITM_ADDR_INDEX)
T0884 000:061.412   Value=0xE0000000
T0884 000:061.428 - 0.027ms returns 0
T0884 000:061.438 JLINK_GetDebugInfo(0x105 = JLINKARM_DEBUG_INFO_DWT_ADDR_INDEX)
T0884 000:061.447   Value=0xE0001000
T0884 000:061.461 - 0.023ms returns 0
T0884 000:061.471 JLINK_GetDebugInfo(0x106 = JLINKARM_DEBUG_INFO_FPB_ADDR_INDEX)
T0884 000:061.480   Value=0xE0002000
T0884 000:061.494 - 0.023ms returns 0
T0884 000:061.504 JLINK_GetDebugInfo(0x107 = JLINKARM_DEBUG_INFO_NVIC_ADDR_INDEX)
T0884 000:061.514   Value=0xE000E000
T0884 000:061.528 - 0.023ms returns 0
T0884 000:061.538 JLINK_GetDebugInfo(0x10C = JLINKARM_DEBUG_INFO_DBG_ADDR_INDEX)
T0884 000:061.547   Value=0xE000EDF0
T0884 000:061.561 - 0.023ms returns 0
T0884 000:061.571 JLINK_GetDebugInfo(0x01 = Unknown)
T0884 000:061.580   Value=0x00000001
T0884 000:061.594 - 0.023ms returns 0
T0884 000:061.604 JLINK_ReadMemU32(0xE000ED00, 0x1 Items)
T0884 000:061.615   CPU_ReadMem(4 bytes @ 0xE000ED00)
T0884 000:061.894   Data:  41 C2 0F 41
T0884 000:061.909   Debug reg: CPUID
T0884 000:061.923 - 0.319ms returns 1 (0x1)
T0884 000:061.934 JLINK_GetDebugInfo(0x10F = JLINKARM_DEBUG_INFO_HAS_CORTEX_M_SECURITY_EXT_INDEX)
T0884 000:061.946   Value=0x00000000
T0884 000:061.965 - 0.030ms returns 0
T0884 000:061.975 JLINK_HasError()
T0884 000:061.986 JLINK_SetResetType(JLINKARM_CM3_RESET_TYPE_NORMAL)
T0884 000:061.996 - 0.009ms returns JLINKARM_CM3_RESET_TYPE_NORMAL
T0884 000:062.006 JLINK_Reset()
T0884 000:062.019   JLINK_GetResetTypeDesc
T0884 000:062.028   - 0.009ms 
T0884 000:062.046   Reset type: NORMAL (https://kb.segger.com/J-Link_Reset_Strategies)
T0884 000:062.062   CPU is running
T0884 000:062.076   CPU_WriteMem(4 bytes @ 0xE000EDF0)
T0884 000:062.320   CPU is running
T0884 000:062.335   CPU_WriteMem(4 bytes @ 0xE000EDFC)
T0884 000:062.543   Reset: Halt core after reset via DEMCR.VC_CORERESET.
T0884 000:062.851   Reset: Reset device via AIRCR.SYSRESETREQ.
T0884 000:062.866   CPU is running
T0884 000:062.881   CPU_WriteMem(4 bytes @ 0xE000ED0C)
T0884 000:116.913   CPU_ReadMem(4 bytes @ 0xE000EDF0)
T0884 000:117.202   CPU_ReadMem(4 bytes @ 0xE000EDF0)
T0884 000:119.576   CPU_WriteMem(4 bytes @ 0xE000EDFC)
T0884 000:125.558   CPU_ReadMem(4 bytes @ 0xE000EDF0)
T0884 000:127.841   CPU_WriteMem(4 bytes @ 0xE0002000)
T0884 000:128.160   CPU_ReadMem(4 bytes @ 0xE000EDFC)
T0884 000:128.411   CPU_ReadMem(4 bytes @ 0xE0001000)
T0884 000:128.733 - 66.726ms 
T0884 000:128.773 JLINK_HasError()
T0884 000:128.814 JLINK_ReadReg(R15 (PC))
T0884 000:128.838 - 0.036ms returns 0x08000304
T0884 000:128.864 JLINK_ReadReg(XPSR)
T0884 000:128.886 - 0.022ms returns 0x01000000
T0884 000:128.913 JLINK_Halt()
T0884 000:128.935 - 0.021ms returns 0x00
T0884 000:128.962 JLINK_ReadMemU32(0xE000EDF0, 0x1 Items)
T0884 000:128.989   CPU_ReadMem(4 bytes @ 0xE000EDF0)
T0884 000:129.238   Data:  03 00 03 00
T0884 000:129.272   Debug reg: DHCSR
T0884 000:129.304 - 0.342ms returns 1 (0x1)
T0884 000:129.336 JLINK_WriteU32(0xE000EDF0, 0xA05F0003)
T0884 000:129.357   Debug reg: DHCSR
T0884 000:129.767   CPU_WriteMem(4 bytes @ 0xE000EDF0)
T0884 000:130.113 - 0.771ms returns 0 (0x00000000)
T0884 000:130.167 JLINK_WriteU32(0xE000EDFC, 0x01000000)
T0884 000:130.189   Debug reg: DEMCR
T0884 000:130.226   CPU_WriteMem(4 bytes @ 0xE000EDFC)
T0884 000:130.506 - 0.338ms returns 0 (0x00000000)
T0884 000:130.591 JLINK_GetHWStatus(...)
T0884 000:130.829 - 0.243ms returns 0
T0884 000:130.871 JLINK_GetNumBPUnits(Type = 0xFFFFFF00)
T0884 000:130.892 - 0.021ms returns 0x06
T0884 000:130.913 JLINK_GetNumBPUnits(Type = 0xF0)
T0884 000:130.932 - 0.019ms returns 0x2000
T0884 000:130.953 JLINK_GetNumWPUnits()
T0884 000:130.972 - 0.019ms returns 4
T0884 000:131.004 JLINK_GetSpeed()
T0884 000:131.027 - 0.023ms returns 4000
T0884 000:131.051 JLINK_ReadMemU32(0xE000E004, 0x1 Items)
T0884 000:131.077   CPU_ReadMem(4 bytes @ 0xE000E004)
T0884 000:131.331   Data:  02 00 00 00
T0884 000:131.357 - 0.306ms returns 1 (0x1)
T0884 000:131.376 JLINK_ReadMemU32(0xE000E004, 0x1 Items)
T0884 000:131.398   CPU_ReadMem(4 bytes @ 0xE000E004)
T0884 000:131.698   Data:  02 00 00 00
T0884 000:131.726 - 0.349ms returns 1 (0x1)
T0884 000:131.757 JLINK_WriteMemEx(0xE0001000, 0x0000001C Bytes, Flags = 0x02000004)
T0884 000:131.774   Data:  01 00 00 00 00 00 00 00 00 00 00 00 00 00 00 00 ...
T0884 000:131.809   CPU_WriteMem(28 bytes @ 0xE0001000)
T0884 000:132.203 - 0.446ms returns 0x1C
T0884 000:132.222 JLINK_HasError()
T0884 000:132.240 JLINK_ReadReg(R15 (PC))
T0884 000:132.257 - 0.016ms returns 0x08000304
T0884 000:132.273 JLINK_ReadReg(XPSR)
T0884 000:132.289 - 0.015ms returns 0x01000000
T0884 000:134.460 JLINK_ReadMemEx(0xE0001004, 0x4 Bytes, Flags = 0x02000000)
T0884 000:134.486   Data:  00 00 00 00
T0884 000:134.506   Debug reg: DWT_CYCCNT
T0884 000:134.524 - 0.065ms returns 4 (0x4)
T0884 000:215.047 JLINK_HasError()
T0884 000:215.086 JLINK_SetResetType(JLINKARM_CM3_RESET_TYPE_NORMAL)
T0884 000:215.098 - 0.011ms returns JLINKARM_CM3_RESET_TYPE_NORMAL
T0884 000:215.109 JLINK_Reset()
T0884 000:215.126   JLINK_GetResetTypeDesc
T0884 000:215.137   - 0.010ms 
T0884 000:215.159   Reset type: NORMAL (https://kb.segger.com/J-Link_Reset_Strategies)
T0884 000:215.173   CPU_WriteMem(4 bytes @ 0xE000EDF0)
T0884 000:215.478   CPU_WriteMem(4 bytes @ 0xE000EDFC)
T0884 000:215.750   Reset: Halt core after reset via DEMCR.VC_CORERESET.
T0884 000:215.990   Reset: Reset device via AIRCR.SYSRESETREQ.
T0884 000:216.008   CPU_WriteMem(4 bytes @ 0xE000ED0C)
T0884 000:269.124   CPU_ReadMem(4 bytes @ 0xE000EDF0)
T0884 000:269.572   CPU_ReadMem(4 bytes @ 0xE000EDF0)
T0884 000:269.935   CPU_WriteMem(4 bytes @ 0xE000EDFC)
T0884 000:276.242   CPU_ReadMem(4 bytes @ 0xE000EDF0)
T0884 000:278.543   CPU_WriteMem(4 bytes @ 0xE0002000)
T0884 000:278.937   CPU_ReadMem(4 bytes @ 0xE000EDFC)
T0884 000:279.345   CPU_ReadMem(4 bytes @ 0xE0001000)
T0884 000:279.628 - 64.517ms 
T0884 000:279.701 JLINK_HasError()
T0884 000:279.727 JLINK_ReadReg(R15 (PC))
T0884 000:279.750 - 0.022ms returns 0x08000304
T0884 000:279.772 JLINK_ReadReg(XPSR)
T0884 000:279.793 - 0.021ms returns 0x01000000
T0884 000:280.441 JLINK_ReadMemEx(0x08000304, 0x3C Bytes, Flags = 0x02000000)
T0884 000:280.491   CPU_ReadMem(64 bytes @ 0x08000300)
T0884 000:281.124    -- Updating C cache (64 bytes @ 0x08000300)
T0884 000:281.202    -- Read from C cache (60 bytes @ 0x08000304)
T0884 000:281.229   Data:  09 48 80 47 09 48 00 47 FE E7 FE E7 FE E7 FE E7 ...
T0884 000:281.255 - 0.813ms returns 60 (0x3C)
T0884 000:281.274 JLINK_ReadMemEx(0x08000304, 0x2 Bytes, Flags = 0x02000000)
T0884 000:281.293    -- Read from C cache (2 bytes @ 0x08000304)
T0884 000:281.317   Data:  09 48
T0884 000:281.343 - 0.068ms returns 2 (0x2)
T0884 000:281.427 JLINK_ReadMemEx(0x08000306, 0x2 Bytes, Flags = 0x02000000)
T0884 000:281.459    -- Read from C cache (2 bytes @ 0x08000306)
T0884 000:281.486   Data:  80 47
T0884 000:281.511 - 0.084ms returns 2 (0x2)
T0884 000:281.540 JLINK_ReadMemEx(0x08000306, 0x2 Bytes, Flags = 0x02000000)
T0884 000:281.558    -- Read from C cache (2 bytes @ 0x08000306)
T0884 000:281.582   Data:  80 47
T0884 000:281.608 - 0.068ms returns 2 (0x2)
T0884 000:281.626 JLINK_ReadMemEx(0x08000308, 0x3C Bytes, Flags = 0x02000000)
T0884 000:281.645   CPU_ReadMem(64 bytes @ 0x08000340)
T0884 000:282.243    -- Updating C cache (64 bytes @ 0x08000340)
T0884 000:282.319    -- Read from C cache (60 bytes @ 0x08000308)
T0884 000:282.346   Data:  09 48 00 47 FE E7 FE E7 FE E7 FE E7 FE E7 FE E7 ...
T0884 000:282.373 - 0.746ms returns 60 (0x3C)
T0884 000:282.392 JLINK_ReadMemEx(0x08000308, 0x2 Bytes, Flags = 0x02000000)
T0884 000:282.410    -- Read from C cache (2 bytes @ 0x08000308)
T0884 000:282.436   Data:  09 48
T0884 000:282.467 - 0.075ms returns 2 (0x2)
T0884 001:622.500 JLINK_HasError()
T0884 001:622.545 JLINK_ReadReg(R0)
T0884 001:622.776 - 0.250ms returns 0x00000000
T0884 001:622.790 JLINK_ReadReg(R1)
T0884 001:622.801 - 0.011ms returns 0x00000000
T0884 001:622.812 JLINK_ReadReg(R2)
T0884 001:622.823 - 0.010ms returns 0x00000000
T0884 001:622.869 JLINK_ReadReg(R3)
T0884 001:622.879 - 0.010ms returns 0x00000000
T0884 001:622.890 JLINK_ReadReg(R4)
T0884 001:622.900 - 0.010ms returns 0x00000000
T0884 001:622.911 JLINK_ReadReg(R5)
T0884 001:622.921 - 0.010ms returns 0x00000000
T0884 001:622.932 JLINK_ReadReg(R6)
T0884 001:622.942 - 0.010ms returns 0x00000000
T0884 001:622.953 JLINK_ReadReg(R7)
T0884 001:622.963 - 0.010ms returns 0x00000000
T0884 001:622.974 JLINK_ReadReg(R8)
T0884 001:622.986 - 0.012ms returns 0x00000000
T0884 001:622.996 JLINK_ReadReg(R9)
T0884 001:623.006 - 0.009ms returns 0x00000000
T0884 001:623.016 JLINK_ReadReg(R10)
T0884 001:623.025 - 0.009ms returns 0x00000000
T0884 001:623.035 JLINK_ReadReg(R11)
T0884 001:623.045 - 0.009ms returns 0x00000000
T0884 001:623.055 JLINK_ReadReg(R12)
T0884 001:623.064 - 0.009ms returns 0x00000000
T0884 001:623.074 JLINK_ReadReg(R13 (SP))
T0884 001:623.084 - 0.009ms returns 0x20004AC0
T0884 001:623.094 JLINK_ReadReg(R14)
T0884 001:623.104 - 0.009ms returns 0xFFFFFFFF
T0884 001:623.114 JLINK_ReadReg(R15 (PC))
T0884 001:623.123 - 0.009ms returns 0x08000304
T0884 001:623.137 JLINK_ReadReg(XPSR)
T0884 001:623.147 - 0.010ms returns 0x01000000
T0884 001:623.157 JLINK_ReadReg(MSP)
T0884 001:623.171 - 0.014ms returns 0x20004AC0
T0884 001:623.181 JLINK_ReadReg(PSP)
T0884 001:623.191 - 0.009ms returns 0x00000000
T0884 001:623.201 JLINK_ReadReg(CFBP)
T0884 001:623.212 - 0.010ms returns 0x00000000
T0884 001:623.223 JLINK_ReadReg(FPSCR)
T0884 001:626.109 - 2.886ms returns 0x00000000
T0884 001:626.127 JLINK_ReadReg(FPS0)
T0884 001:626.138 - 0.010ms returns 0x00000000
T0884 001:626.148 JLINK_ReadReg(FPS1)
T0884 001:626.159 - 0.010ms returns 0x00000000
T0884 001:626.170 JLINK_ReadReg(FPS2)
T0884 001:626.180 - 0.010ms returns 0x00000000
T0884 001:626.191 JLINK_ReadReg(FPS3)
T0884 001:626.201 - 0.010ms returns 0x00000000
T0884 001:626.212 JLINK_ReadReg(FPS4)
T0884 001:626.222 - 0.010ms returns 0x00000000
T0884 001:626.233 JLINK_ReadReg(FPS5)
T0884 001:626.243 - 0.010ms returns 0x00000000
T0884 001:626.254 JLINK_ReadReg(FPS6)
T0884 001:626.264 - 0.010ms returns 0x00000000
T0884 001:626.275 JLINK_ReadReg(FPS7)
T0884 001:626.285 - 0.010ms returns 0x00000000
T0884 001:626.296 JLINK_ReadReg(FPS8)
T0884 001:626.306 - 0.010ms returns 0x00000000
T0884 001:626.317 JLINK_ReadReg(FPS9)
T0884 001:626.327 - 0.010ms returns 0x00000000
T0884 001:626.338 JLINK_ReadReg(FPS10)
T0884 001:626.348 - 0.010ms returns 0x00000000
T0884 001:626.359 JLINK_ReadReg(FPS11)
T0884 001:626.369 - 0.010ms returns 0x00000000
T0884 001:626.380 JLINK_ReadReg(FPS12)
T0884 001:626.391 - 0.011ms returns 0x00000000
T0884 001:626.401 JLINK_ReadReg(FPS13)
T0884 001:626.411 - 0.009ms returns 0x00000000
T0884 001:626.421 JLINK_ReadReg(FPS14)
T0884 001:626.430 - 0.009ms returns 0x00000000
T0884 001:626.440 JLINK_ReadReg(FPS15)
T0884 001:626.450 - 0.009ms returns 0x00000000
T0884 001:626.459 JLINK_ReadReg(FPS16)
T0884 001:626.470 - 0.010ms returns 0x00000000
T0884 001:626.481 JLINK_ReadReg(FPS17)
T0884 001:626.491 - 0.010ms returns 0x00000000
T0884 001:626.502 JLINK_ReadReg(FPS18)
T0884 001:626.512 - 0.010ms returns 0x00000000
T0884 001:626.523 JLINK_ReadReg(FPS19)
T0884 001:626.533 - 0.010ms returns 0x00000000
T0884 001:626.544 JLINK_ReadReg(FPS20)
T0884 001:626.554 - 0.010ms returns 0x00000000
T0884 001:626.565 JLINK_ReadReg(FPS21)
T0884 001:626.575 - 0.010ms returns 0x00000000
T0884 001:626.586 JLINK_ReadReg(FPS22)
T0884 001:626.596 - 0.010ms returns 0x00000000
T0884 001:626.607 JLINK_ReadReg(FPS23)
T0884 001:626.617 - 0.010ms returns 0x00000000
T0884 001:626.632 JLINK_ReadReg(FPS24)
T0884 001:626.643 - 0.010ms returns 0x00000000
T0884 001:626.653 JLINK_ReadReg(FPS25)
T0884 001:626.664 - 0.010ms returns 0x00000000
T0884 001:626.675 JLINK_ReadReg(FPS26)
T0884 001:626.685 - 0.010ms returns 0x00000000
T0884 001:626.696 JLINK_ReadReg(FPS27)
T0884 001:626.706 - 0.010ms returns 0x00000000
T0884 001:626.717 JLINK_ReadReg(FPS28)
T0884 001:626.727 - 0.010ms returns 0x00000000
T0884 001:626.742 JLINK_ReadReg(FPS29)
T0884 001:626.752 - 0.010ms returns 0x00000000
T0884 001:626.763 JLINK_ReadReg(FPS30)
T0884 001:626.774 - 0.010ms returns 0x00000000
T0884 001:626.785 JLINK_ReadReg(FPS31)
T0884 001:626.795 - 0.010ms returns 0x00000000
T0884 002:042.334 JLINK_ReadMemEx(0x200041D8, 0x20 Bytes, Flags = 0x02000000)
T0884 002:042.391   CPU_ReadMem(64 bytes @ 0x200041C0)
T0884 002:042.900    -- Updating C cache (64 bytes @ 0x200041C0)
T0884 002:043.004    -- Read from C cache (32 bytes @ 0x200041D8)
T0884 002:043.020   Data:  00 00 00 00 00 00 00 00 00 00 00 00 00 00 00 00 ...
T0884 002:043.036 - 0.702ms returns 32 (0x20)
T0884 002:046.003 JLINK_ReadMemEx(0x2000420C, 0x20 Bytes, Flags = 0x02000000)
T0884 002:046.039   CPU_ReadMem(64 bytes @ 0x20004200)
T0884 002:046.541    -- Updating C cache (64 bytes @ 0x20004200)
T0884 002:046.572    -- Read from C cache (32 bytes @ 0x2000420C)
T0884 002:046.589   Data:  00 00 00 00 00 00 00 00 00 00 00 00 00 00 00 00 ...
T0884 002:046.605 - 0.602ms returns 32 (0x20)
T0884 002:050.769 JLINK_ReadMemEx(0x20000090, 0x4 Bytes, Flags = 0x02000000)
T0884 002:050.813   CPU_ReadMem(64 bytes @ 0x20000080)
T0884 002:051.375    -- Updating C cache (64 bytes @ 0x20000080)
T0884 002:051.396    -- Read from C cache (4 bytes @ 0x20000090)
T0884 002:051.414   Data:  00 20 70 47
T0884 002:051.430 - 0.662ms returns 4 (0x4)
T0884 002:051.655 JLINK_ReadMemEx(0x20000090, 0x4 Bytes, Flags = 0x02000000)
T0884 002:051.668    -- Read from C cache (4 bytes @ 0x20000090)
T0884 002:051.685   Data:  00 20 70 47
T0884 002:051.699 - 0.044ms returns 4 (0x4)
T0884 002:051.722 JLINK_ReadMemEx(0x20000090, 0x4 Bytes, Flags = 0x02000000)
T0884 002:051.733    -- Read from C cache (4 bytes @ 0x20000090)
T0884 002:051.751   Data:  00 20 70 47
T0884 002:051.765 - 0.042ms returns 4 (0x4)
T0884 002:062.883 JLINK_ReadMemEx(0x20004240, 0x20 Bytes, Flags = 0x02000000)
T0884 002:062.923   CPU_ReadMem(64 bytes @ 0x20004240)
T0884 002:063.454    -- Updating C cache (64 bytes @ 0x20004240)
T0884 002:063.501    -- Read from C cache (32 bytes @ 0x20004240)
T0884 002:063.518   Data:  00 00 00 00 00 00 00 00 00 00 00 00 00 00 00 00 ...
T0884 002:063.533 - 0.650ms returns 32 (0x20)
T69C0 002:127.421 JLINK_ReadMemEx(0x08000304, 0x2 Bytes, Flags = 0x02000000)
T69C0 002:127.468    -- Read from C cache (2 bytes @ 0x08000304)
T69C0 002:127.486   Data:  09 48
T69C0 002:127.504 - 0.083ms returns 2 (0x2)
T69C0 002:127.516 JLINK_HasError()
T69C0 002:127.542 JLINK_SetBPEx(Addr = 0x080032A4, Type = 0xFFFFFFF2)
T69C0 002:127.554 - 0.012ms returns 0x00000001
T69C0 002:127.565 JLINK_HasError()
T69C0 002:127.576 JLINK_SetBPEx(Addr = 0x08002C06, Type = 0xFFFFFFF2)
T69C0 002:127.587 - 0.010ms returns 0x00000002
T69C0 002:127.598 JLINK_HasError()
T69C0 002:127.608 JLINK_SetBPEx(Addr = 0x08001FCE, Type = 0xFFFFFFF2)
T69C0 002:127.619 - 0.010ms returns 0x00000003
T69C0 002:127.630 JLINK_HasError()
T69C0 002:127.641 JLINK_SetBPEx(Addr = 0x08002A8A, Type = 0xFFFFFFF2)
T69C0 002:127.651 - 0.010ms returns 0x00000004
T69C0 002:127.662 JLINK_HasError()
T69C0 002:127.673 JLINK_SetBPEx(Addr = 0x08002A94, Type = 0xFFFFFFF2)
T69C0 002:127.683 - 0.010ms returns 0x00000005
T69C0 002:127.694 JLINK_HasError()
T69C0 002:127.705 JLINK_SetBPEx(Addr = 0x080032C0, Type = 0xFFFFFFF2)
T69C0 002:127.715 - 0.010ms returns 0x00000006
T69C0 002:127.726 JLINK_HasError()
T69C0 002:127.737 JLINK_SetBPEx(Addr = 0x080032D4, Type = 0xFFFFFFF2)
T69C0 002:131.283    -- BP[0] @ 0x080032A4 converted into FlashBP
T69C0 002:131.317 - 3.579ms returns 0x00000007
T69C0 002:131.332 JLINK_HasError()
T69C0 002:131.345 JLINK_SetBPEx(Addr = 0x080032DC, Type = 0xFFFFFFF2)
T69C0 002:135.427    -- BP[1] @ 0x08002C06 converted into FlashBP
T69C0 002:135.490 - 4.144ms returns 0x00000008
T69C0 002:135.510 JLINK_HasError()
T69C0 002:135.524 JLINK_SetBPEx(Addr = 0x080032E4, Type = 0xFFFFFFF2)
T69C0 002:139.596    -- BP[2] @ 0x08001FCE converted into FlashBP
T69C0 002:139.630 - 4.106ms returns 0x00000009
T69C0 002:139.656 JLINK_HasError()
T69C0 002:139.672 JLINK_HasError()
T69C0 002:139.687 JLINK_Go()
T69C0 002:139.968    -- Read from C cache (2 bytes @ 0x08000304)
T69C0 002:140.005   CPU_ReadMem(4 bytes @ 0xE000ED18)
T69C0 002:140.227   CPU_WriteMem(4 bytes @ 0xE000ED18)
T69C0 002:140.478   CPU_ReadMem(4 bytes @ 0xE000ED18)
T69C0 002:140.740   CPU_WriteMem(4 bytes @ 0xE000ED18)
T69C0 002:140.987    -- Read from C cache (4 bytes @ 0x0800032C)
T69C0 002:141.013   -- Simulated
T69C0 002:141.030    -- Read from C cache (2 bytes @ 0x08000306)
T69C0 002:141.046   -- Simulated
T69C0 002:141.064   CPU_ReadMem(64 bytes @ 0x08002D00)
T69C0 002:141.528    -- Updating C cache (64 bytes @ 0x08002D00)
T69C0 002:141.549    -- Read from C cache (2 bytes @ 0x08002D30)
T69C0 002:141.571    -- Read from C cache (4 bytes @ 0x08002D3C)
T69C0 002:141.588   -- Simulated
T69C0 002:141.607    -- Read from C cache (2 bytes @ 0x08002D32)
T69C0 002:141.623   -- Not simulated
T69C0 002:141.650   CPU_ReadMem(4 bytes @ 0xE000ED90)
T69C0 002:141.871   CPU_ReadMem(4 bytes @ 0xE000ED94)
T69C0 002:142.164    -- (Bank @ 0x08000000): Start of determining flash info
T69C0 002:152.598    -- End of determining flash info
T69C0 002:186.572    -- Start of preparing flash programming
T69C0 002:186.626    -- Preparing RAMCode
T69C0 002:186.642    -- Calculating RAM usage
T69C0 002:186.659    -- RAM usage = 7144 Bytes
T69C0 002:186.675    -- Preserving CPU registers
T69C0 002:186.716    -- Preparing memory
T69C0 002:186.732    -- Preparing target
T69C0 002:186.748    -- Preserving target RAM temporarily used for programming
T69C0 002:214.270    -- Downloading RAMCode
T69C0 002:231.911    -- Initializing RAMCode (InitType: 3 = Verify)
T69C0 002:231.956   CPU_ReadMem(4 bytes @ 0x40023C10)
T69C0 002:232.468   CPU_WriteMem(4 bytes @ 0x40023C04)
T69C0 002:232.496   CPU_WriteMem(4 bytes @ 0x40023C04)
T69C0 002:232.513   CPU_ReadMem(4 bytes @ 0x40023C10)
T69C0 002:233.381   CPU_WriteMem(4 bytes @ 0x40023C10)
T69C0 002:233.410   CPU_ReadMem(4 bytes @ 0x40023C0C)
T69C0 002:233.828   CPU_ReadMem(4 bytes @ 0x40023C10)
T69C0 002:234.073   CPU_WriteMem(4 bytes @ 0x40023C10)
T69C0 002:234.103    -- Executing SEGGER_FL_Prepare(3)
T69C0 002:236.901    -- SEGGER_FL_Prepare() changed clock speed to 120000000Hz
T69C0 002:236.934    -- End of preparing flash programming
T69C0 002:236.954   CPU_ReadMem(16384 bytes @ 0x08000000)
T69C0 002:300.820    -- Updating flash cache (16384 bytes @ 0x08000000)
T69C0 002:300.863    -- Updating flash cache invalid range 0x08000000 - 0x08003FFF (16384 bytes)
T69C0 002:300.883    -- Programming range 0x08000000 - 0x08003FFF (  1 Sector, 16 KB)
T69C0 002:580.226    -- Start of restoring
T69C0 002:580.261    -- Executing SEGGER_FL_Restore()
T69C0 002:582.883   CPU_ReadMem(4 bytes @ 0x40023C10)
T69C0 002:583.110   CPU_WriteMem(4 bytes @ 0x40023C04)
T69C0 002:583.130   CPU_WriteMem(4 bytes @ 0x40023C04)
T69C0 002:583.148   CPU_WriteMem(4 bytes @ 0x40023C10)
T69C0 002:583.167   CPU_ReadMem(4 bytes @ 0x40023C0C)
T69C0 002:583.820   CPU_ReadMem(4 bytes @ 0x40023C10)
T69C0 002:584.029   CPU_WriteMem(4 bytes @ 0x40023C10)
T69C0 002:584.323    -- Restoring target memory
T69C0 002:606.167    -- Restoring CPU registers
T69C0 002:606.292    -- End of restoring
T69C0 002:618.762   CPU_WriteMem(4 bytes @ 0xE0002000)
T69C0 002:619.037   CPU_ReadMem(4 bytes @ 0xE0002008)
T69C0 002:619.564   CPU_WriteMem(4 bytes @ 0xE000EDF4)
T69C0 002:620.152   CPU_ReadMem(4 bytes @ 0xE000EDF8)
T69C0 002:620.476   CPU_WriteMem(4 bytes @ 0xE0002008)
T69C0 002:620.726   CPU_WriteMem(4 bytes @ 0xE000EDF8)
T69C0 002:621.050   CPU_WriteMem(4 bytes @ 0xE000EDF4)
T69C0 002:621.321   CPU_WriteMem(4 bytes @ 0xE000EDF0)
T69C0 002:621.589   CPU_WriteMem(4 bytes @ 0xE000EDF0)
T69C0 002:622.298   CPU_ReadMem(4 bytes @ 0xE000EDF0)
T69C0 002:622.588   CPU_WriteMem(4 bytes @ 0xE000EDF0)
T69C0 002:622.800   CPU_WriteMem(4 bytes @ 0xE0002008)
T69C0 002:623.008   CPU_WriteMem(4 bytes @ 0xE000EDF8)
T69C0 002:623.216   CPU_WriteMem(4 bytes @ 0xE000EDF4)
T69C0 002:623.531   CPU_WriteMem(4 bytes @ 0xE0002000)
T69C0 002:623.937   CPU_WriteMem(4 bytes @ 0xE0002000)
T69C0 002:624.153   CPU_WriteMem(4 bytes @ 0xE0002000)
T69C0 002:624.470   CPU_WriteMem(4 bytes @ 0xE0002000)
T69C0 002:625.028   CPU_WriteMem(4 bytes @ 0xE0002000)
T69C0 002:625.507   CPU_WriteMem(4 bytes @ 0xE0002000)
T69C0 002:626.766   CPU_ReadMem(4 bytes @ 0xE0001000)
T69C0 002:627.935   CPU_WriteMem(4 bytes @ 0xE0002008)
T69C0 002:627.963   CPU_WriteMem(4 bytes @ 0xE000200C)
T69C0 002:627.978   CPU_WriteMem(4 bytes @ 0xE0002010)
T69C0 002:627.993   CPU_WriteMem(4 bytes @ 0xE0002014)
T69C0 002:628.008   CPU_WriteMem(4 bytes @ 0xE0002018)
T69C0 002:628.024   CPU_WriteMem(4 bytes @ 0xE000201C)
T69C0 002:633.572   Memory map 'after startup completion point' is active
T69C0 002:633.603 - 493.915ms 
T69C0 002:734.529 JLINK_HasError()
T69C0 002:734.563 JLINK_IsHalted()
T69C0 002:736.482 - 1.916ms returns TRUE
T69C0 002:736.597 JLINK_HasError()
T69C0 002:736.676 JLINK_Halt()
T69C0 002:736.741 - 0.063ms returns 0x00
T69C0 002:736.787 JLINK_IsHalted()
T69C0 002:736.797 - 0.009ms returns TRUE
T69C0 002:736.808 JLINK_IsHalted()
T69C0 002:736.818 - 0.009ms returns TRUE
T69C0 002:736.829 JLINK_IsHalted()
T69C0 002:736.839 - 0.009ms returns TRUE
T69C0 002:736.855 JLINK_HasError()
T69C0 002:736.868 JLINK_ReadReg(R15 (PC))
T69C0 002:736.880 - 0.012ms returns 0x080032A4
T69C0 002:736.893 JLINK_ReadReg(XPSR)
T69C0 002:736.904 - 0.011ms returns 0x01000000
T69C0 002:736.941 JLINK_HasError()
T69C0 002:736.964 JLINK_ClrBPEx(BPHandle = 0x00000001)
T69C0 002:736.974 - 0.010ms returns 0x00
T69C0 002:736.985 JLINK_HasError()
T69C0 002:736.995 JLINK_ClrBPEx(BPHandle = 0x00000002)
T69C0 002:737.005 - 0.009ms returns 0x00
T69C0 002:737.015 JLINK_HasError()
T69C0 002:737.025 JLINK_ClrBPEx(BPHandle = 0x00000003)
T69C0 002:737.035 - 0.009ms returns 0x00
T69C0 002:737.045 JLINK_HasError()
T69C0 002:737.055 JLINK_ClrBPEx(BPHandle = 0x00000004)
T69C0 002:737.065 - 0.010ms returns 0x00
T69C0 002:737.075 JLINK_HasError()
T69C0 002:737.085 JLINK_ClrBPEx(BPHandle = 0x00000005)
T69C0 002:737.095 - 0.009ms returns 0x00
T69C0 002:737.105 JLINK_HasError()
T69C0 002:737.117 JLINK_ClrBPEx(BPHandle = 0x00000006)
T69C0 002:737.127 - 0.010ms returns 0x00
T69C0 002:737.138 JLINK_HasError()
T69C0 002:737.149 JLINK_ClrBPEx(BPHandle = 0x00000007)
T69C0 002:737.159 - 0.010ms returns 0x00
T69C0 002:737.169 JLINK_HasError()
T69C0 002:737.180 JLINK_ClrBPEx(BPHandle = 0x00000008)
T69C0 002:737.190 - 0.010ms returns 0x00
T69C0 002:737.201 JLINK_HasError()
T69C0 002:737.212 JLINK_ClrBPEx(BPHandle = 0x00000009)
T69C0 002:737.222 - 0.009ms returns 0x00
T69C0 002:737.232 JLINK_HasError()
T69C0 002:737.242 JLINK_HasError()
T69C0 002:737.252 JLINK_ReadMemU32(0xE000ED30, 0x1 Items)
T69C0 002:737.267   CPU_ReadMem(4 bytes @ 0xE000ED30)
T69C0 002:737.474   Data:  02 00 00 00
T69C0 002:737.489 - 0.236ms returns 1 (0x1)
T69C0 002:737.500 JLINK_ReadMemU32(0xE0001028, 0x1 Items)
T69C0 002:737.510   CPU_ReadMem(4 bytes @ 0xE0001028)
T69C0 002:737.717   Data:  00 00 00 00
T69C0 002:737.732   Debug reg: DWT_FUNC[0]
T69C0 002:737.747 - 0.247ms returns 1 (0x1)
T69C0 002:737.757 JLINK_ReadMemU32(0xE0001038, 0x1 Items)
T69C0 002:737.768   CPU_ReadMem(4 bytes @ 0xE0001038)
T69C0 002:737.966   Data:  00 02 00 00
T69C0 002:737.981   Debug reg: DWT_FUNC[1]
T69C0 002:737.994 - 0.237ms returns 1 (0x1)
T69C0 002:738.005 JLINK_ReadMemU32(0xE0001048, 0x1 Items)
T69C0 002:738.015   CPU_ReadMem(4 bytes @ 0xE0001048)
T69C0 002:738.225   Data:  00 00 00 00
T69C0 002:738.256   Debug reg: DWT_FUNC[2]
T69C0 002:738.271 - 0.266ms returns 1 (0x1)
T69C0 002:738.284 JLINK_ReadMemU32(0xE0001058, 0x1 Items)
T69C0 002:738.299   CPU_ReadMem(4 bytes @ 0xE0001058)
T69C0 002:738.532   Data:  00 00 00 00
T69C0 002:738.549   Debug reg: DWT_FUNC[3]
T69C0 002:738.564 - 0.279ms returns 1 (0x1)
T69C0 002:738.615 JLINK_HasError()
T69C0 002:738.627 JLINK_ReadReg(R0)
T69C0 002:738.642 - 0.014ms returns 0x200044C0
T69C0 002:738.692 JLINK_ReadReg(R1)
T69C0 002:738.704 - 0.011ms returns 0x200046C0
T69C0 002:738.713 JLINK_ReadReg(R2)
T69C0 002:738.723 - 0.009ms returns 0x200046C0
T69C0 002:738.733 JLINK_ReadReg(R3)
T69C0 002:738.742 - 0.009ms returns 0x200046C0
T69C0 002:738.752 JLINK_ReadReg(R4)
T69C0 002:738.761 - 0.009ms returns 0x00000000
T69C0 002:738.771 JLINK_ReadReg(R5)
T69C0 002:738.780 - 0.009ms returns 0x20004460
T69C0 002:738.790 JLINK_ReadReg(R6)
T69C0 002:738.800 - 0.009ms returns 0x00000000
T69C0 002:738.809 JLINK_ReadReg(R7)
T69C0 002:738.818 - 0.009ms returns 0x00000000
T69C0 002:738.828 JLINK_ReadReg(R8)
T69C0 002:738.838 - 0.009ms returns 0x00000000
T69C0 002:738.847 JLINK_ReadReg(R9)
T69C0 002:738.857 - 0.009ms returns 0x00000000
T69C0 002:738.866 JLINK_ReadReg(R10)
T69C0 002:738.876 - 0.009ms returns 0x080046F0
T69C0 002:738.886 JLINK_ReadReg(R11)
T69C0 002:738.895 - 0.009ms returns 0x00000000
T69C0 002:738.905 JLINK_ReadReg(R12)
T69C0 002:738.914 - 0.009ms returns 0x200044A0
T69C0 002:738.924 JLINK_ReadReg(R13 (SP))
T69C0 002:738.934 - 0.009ms returns 0x20004AC0
T69C0 002:738.943 JLINK_ReadReg(R14)
T69C0 002:738.953 - 0.009ms returns 0x08000233
T69C0 002:738.962 JLINK_ReadReg(R15 (PC))
T69C0 002:738.972 - 0.009ms returns 0x080032A4
T69C0 002:738.981 JLINK_ReadReg(XPSR)
T69C0 002:738.991 - 0.009ms returns 0x01000000
T69C0 002:739.001 JLINK_ReadReg(MSP)
T69C0 002:739.050 - 0.048ms returns 0x20004AC0
T69C0 002:739.066 JLINK_ReadReg(PSP)
T69C0 002:739.076 - 0.010ms returns 0x00000000
T69C0 002:739.087 JLINK_ReadReg(CFBP)
T69C0 002:739.098 - 0.010ms returns 0x04000000
T69C0 002:739.109 JLINK_ReadReg(FPSCR)
T69C0 002:741.820 - 2.711ms returns 0x03000000
T69C0 002:741.832 JLINK_ReadReg(FPS0)
T69C0 002:741.842 - 0.009ms returns 0x00000000
T69C0 002:741.852 JLINK_ReadReg(FPS1)
T69C0 002:741.861 - 0.009ms returns 0x00000000
T69C0 002:741.871 JLINK_ReadReg(FPS2)
T69C0 002:741.880 - 0.009ms returns 0x00000000
T69C0 002:741.890 JLINK_ReadReg(FPS3)
T69C0 002:741.900 - 0.009ms returns 0x00000000
T69C0 002:741.909 JLINK_ReadReg(FPS4)
T69C0 002:741.918 - 0.009ms returns 0x00000000
T69C0 002:741.928 JLINK_ReadReg(FPS5)
T69C0 002:741.938 - 0.009ms returns 0x00000000
T69C0 002:741.947 JLINK_ReadReg(FPS6)
T69C0 002:741.960 - 0.012ms returns 0x00000000
T69C0 002:741.970 JLINK_ReadReg(FPS7)
T69C0 002:741.979 - 0.009ms returns 0x00000000
T69C0 002:741.989 JLINK_ReadReg(FPS8)
T69C0 002:741.998 - 0.009ms returns 0x00000000
T69C0 002:742.008 JLINK_ReadReg(FPS9)
T69C0 002:742.017 - 0.009ms returns 0x00000000
T69C0 002:742.027 JLINK_ReadReg(FPS10)
T69C0 002:742.036 - 0.009ms returns 0x00000000
T69C0 002:742.047 JLINK_ReadReg(FPS11)
T69C0 002:742.057 - 0.010ms returns 0x00000000
T69C0 002:742.068 JLINK_ReadReg(FPS12)
T69C0 002:742.082 - 0.014ms returns 0x00000000
T69C0 002:742.093 JLINK_ReadReg(FPS13)
T69C0 002:742.103 - 0.010ms returns 0x00000000
T69C0 002:742.114 JLINK_ReadReg(FPS14)
T69C0 002:742.124 - 0.010ms returns 0x00000000
T69C0 002:742.135 JLINK_ReadReg(FPS15)
T69C0 002:742.145 - 0.009ms returns 0x00000000
T69C0 002:742.154 JLINK_ReadReg(FPS16)
T69C0 002:742.164 - 0.009ms returns 0x00000000
T69C0 002:742.174 JLINK_ReadReg(FPS17)
T69C0 002:742.183 - 0.009ms returns 0x00000000
T69C0 002:742.193 JLINK_ReadReg(FPS18)
T69C0 002:742.203 - 0.010ms returns 0x00000000
T69C0 002:742.214 JLINK_ReadReg(FPS19)
T69C0 002:742.224 - 0.010ms returns 0x00000000
T69C0 002:742.234 JLINK_ReadReg(FPS20)
T69C0 002:742.244 - 0.010ms returns 0x00000000
T69C0 002:742.255 JLINK_ReadReg(FPS21)
T69C0 002:742.265 - 0.010ms returns 0x00000000
T69C0 002:742.276 JLINK_ReadReg(FPS22)
T69C0 002:742.286 - 0.010ms returns 0x00000000
T69C0 002:742.296 JLINK_ReadReg(FPS23)
T69C0 002:742.306 - 0.010ms returns 0x00000000
T69C0 002:742.317 JLINK_ReadReg(FPS24)
T69C0 002:742.327 - 0.010ms returns 0x00000000
T69C0 002:742.338 JLINK_ReadReg(FPS25)
T69C0 002:742.348 - 0.010ms returns 0x00000000
T69C0 002:742.359 JLINK_ReadReg(FPS26)
T69C0 002:742.369 - 0.010ms returns 0x00000000
T69C0 002:742.383 JLINK_ReadReg(FPS27)
T69C0 002:742.394 - 0.011ms returns 0x00000000
T69C0 002:742.405 JLINK_ReadReg(FPS28)
T69C0 002:742.415 - 0.010ms returns 0x00000000
T69C0 002:742.425 JLINK_ReadReg(FPS29)
T69C0 002:742.435 - 0.010ms returns 0x00000000
T69C0 002:742.446 JLINK_ReadReg(FPS30)
T69C0 002:742.456 - 0.010ms returns 0x00000000
T69C0 002:742.467 JLINK_ReadReg(FPS31)
T69C0 002:742.477 - 0.010ms returns 0x00000000
T69C0 002:742.491 JLINK_ReadMemEx(0x2000001C, 0x4 Bytes, Flags = 0x02000000)
T69C0 002:742.506   CPU_ReadMem(64 bytes @ 0x20000000)
T69C0 002:742.966    -- Updating C cache (64 bytes @ 0x20000000)
T69C0 002:742.984    -- Read from C cache (4 bytes @ 0x2000001C)
T69C0 002:743.014   Data:  00 00 00 00
T69C0 002:743.032 - 0.541ms returns 4 (0x4)
T0884 002:744.085 JLINK_ReadMemEx(0x200041D8, 0x20 Bytes, Flags = 0x02000000)
T0884 002:744.106   CPU_ReadMem(64 bytes @ 0x200041C0)
T0884 002:744.571    -- Updating C cache (64 bytes @ 0x200041C0)
T0884 002:744.587    -- Read from C cache (32 bytes @ 0x200041D8)
T0884 002:744.601   Data:  00 00 00 00 00 00 00 00 00 00 00 00 00 00 00 00 ...
T0884 002:744.615 - 0.530ms returns 32 (0x20)
T0884 002:744.632 JLINK_ReadMemEx(0x2000420C, 0x20 Bytes, Flags = 0x02000000)
T0884 002:744.642   CPU_ReadMem(64 bytes @ 0x20004200)
T0884 002:745.113    -- Updating C cache (64 bytes @ 0x20004200)
T0884 002:745.166    -- Read from C cache (32 bytes @ 0x2000420C)
T0884 002:745.180   Data:  00 00 00 00 00 00 00 00 00 00 00 00 00 00 00 00 ...
T0884 002:745.194 - 0.562ms returns 32 (0x20)
T0884 002:745.207 JLINK_ReadMemEx(0x20000090, 0x4 Bytes, Flags = 0x02000000)
T0884 002:745.217   CPU_ReadMem(64 bytes @ 0x20000080)
T0884 002:745.741    -- Updating C cache (64 bytes @ 0x20000080)
T0884 002:745.756    -- Read from C cache (4 bytes @ 0x20000090)
T0884 002:745.770   Data:  00 00 00 00
T0884 002:745.784 - 0.577ms returns 4 (0x4)
T0884 002:751.021 JLINK_ReadMemEx(0x20004240, 0x20 Bytes, Flags = 0x02000000)
T0884 002:751.052   CPU_ReadMem(64 bytes @ 0x20004240)
T0884 002:751.524    -- Updating C cache (64 bytes @ 0x20004240)
T0884 002:751.544    -- Read from C cache (32 bytes @ 0x20004240)
T0884 002:751.560   Data:  00 00 00 00 00 00 00 00 00 00 00 00 00 00 00 00 ...
T0884 002:751.574 - 0.553ms returns 32 (0x20)
T69C0 003:549.377 JLINK_ReadMemEx(0x080032A4, 0x2 Bytes, Flags = 0x02000000)
T69C0 003:549.428    -- Merging zombie BP[0]: 0xF7FE @ 0x080032A4
T69C0 003:549.456    -- Merging zombie BP[0]: 0xF7FE @ 0x080032A4
T69C0 003:549.482   Data:  FE F7
T69C0 003:549.510 - 0.133ms returns 2 (0x2)
T69C0 003:549.530 JLINK_HasError()
T69C0 003:549.551 JLINK_SetBPEx(Addr = 0x08002C06, Type = 0xFFFFFFF2)
T69C0 003:549.570 - 0.019ms returns 0x0000000A
T69C0 003:549.588 JLINK_HasError()
T69C0 003:549.607 JLINK_SetBPEx(Addr = 0x08001FCE, Type = 0xFFFFFFF2)
T69C0 003:549.624 - 0.017ms returns 0x0000000B
T69C0 003:549.643 JLINK_HasError()
T69C0 003:549.662 JLINK_SetBPEx(Addr = 0x08002A8A, Type = 0xFFFFFFF2)
T69C0 003:549.685 - 0.023ms returns 0x0000000C
T69C0 003:549.704 JLINK_HasError()
T69C0 003:549.724 JLINK_SetBPEx(Addr = 0x08002A94, Type = 0xFFFFFFF2)
T69C0 003:549.743 - 0.018ms returns 0x0000000D
T69C0 003:549.761 JLINK_HasError()
T69C0 003:549.780 JLINK_SetBPEx(Addr = 0x080032C0, Type = 0xFFFFFFF2)
T69C0 003:549.798 - 0.018ms returns 0x0000000E
T69C0 003:549.817 JLINK_HasError()
T69C0 003:549.836 JLINK_SetBPEx(Addr = 0x080032D4, Type = 0xFFFFFFF2)
T69C0 003:549.854 - 0.018ms returns 0x0000000F
T69C0 003:549.873 JLINK_HasError()
T69C0 003:549.892 JLINK_SetBPEx(Addr = 0x080032DC, Type = 0xFFFFFFF2)
T69C0 003:549.910 - 0.018ms returns 0x00000010
T69C0 003:549.929 JLINK_HasError()
T69C0 003:549.948 JLINK_SetBPEx(Addr = 0x080032E4, Type = 0xFFFFFFF2)
T69C0 003:549.966 - 0.018ms returns 0x00000011
T69C0 003:549.986 JLINK_HasError()
T69C0 003:550.005 JLINK_HasError()
T69C0 003:550.024 JLINK_Go()
T69C0 003:550.370    -- Merging zombie BP[0]: 0xF7FE @ 0x080032A4
T69C0 003:550.401    -- Merging zombie BP[0]: 0xF7FE @ 0x080032A4
T69C0 003:550.439   CPU_ReadMem(4 bytes @ 0xE0001004)
T69C0 003:550.776    -- Read from flash cache (2 bytes @ 0x080032A6)
T69C0 003:550.828   -- Simulated
T69C0 003:550.856    -- Read from flash cache (2 bytes @ 0x08001654)
T69C0 003:550.882    -- Read from flash cache (4 bytes @ 0x08001684)
T69C0 003:550.906   -- Simulated
T69C0 003:550.931    -- Read from flash cache (2 bytes @ 0x08001656)
T69C0 003:550.966   CPU_WriteMem(8 bytes @ 0x20004AB8)
T69C0 003:551.378   -- Simulated
T69C0 003:551.424    -- Read from flash cache (2 bytes @ 0x08001658)
T69C0 003:551.450   -- Not simulated
T69C0 003:551.479   CPU_ReadMem(4 bytes @ 0xE000ED90)
T69C0 003:552.024   CPU_ReadMem(4 bytes @ 0xE000ED94)
T69C0 003:552.433    -- (Bank @ 0x08000000): Start of determining flash info
T69C0 003:553.579    -- End of determining flash info
T69C0 003:565.776    -- Start of preparing flash programming
T69C0 003:565.817    -- Preparing RAMCode
T69C0 003:565.833    -- Calculating RAM usage
T69C0 003:565.850    -- RAM usage = 7144 Bytes
T69C0 003:565.865    -- Preserving CPU registers
T69C0 003:565.896    -- Preparing memory
T69C0 003:565.911    -- Preparing target
T69C0 003:565.926    -- Preserving target RAM temporarily used for programming
T69C0 003:593.458    -- Downloading RAMCode
T69C0 003:611.144    -- Initializing RAMCode (InitType: 3 = Verify)
T69C0 003:611.302   CPU_ReadMem(4 bytes @ 0x40023C10)
T69C0 003:611.750   CPU_WriteMem(4 bytes @ 0x40023C04)
T69C0 003:611.811   CPU_WriteMem(4 bytes @ 0x40023C04)
T69C0 003:611.844   CPU_ReadMem(4 bytes @ 0x40023C10)
T69C0 003:612.514   CPU_WriteMem(4 bytes @ 0x40023C10)
T69C0 003:612.535   CPU_ReadMem(4 bytes @ 0x40023C0C)
T69C0 003:612.897   CPU_ReadMem(4 bytes @ 0x40023C10)
T69C0 003:613.146   CPU_WriteMem(4 bytes @ 0x40023C10)
T69C0 003:613.166    -- Executing SEGGER_FL_Prepare(3)
T69C0 003:615.779    -- SEGGER_FL_Prepare() changed clock speed to 120000000Hz
T69C0 003:615.805    -- End of preparing flash programming
T69C0 003:615.842    -- Read from flash cache (16384 bytes @ 0x08000000)
T69C0 003:615.862    -- Programming range 0x08000000 - 0x08003FFF (  1 Sector, 16 KB)
T69C0 003:910.732    -- Start of restoring
T69C0 003:910.790    -- Executing SEGGER_FL_Restore()
T69C0 003:913.466   CPU_ReadMem(4 bytes @ 0x40023C10)
T69C0 003:913.746   CPU_WriteMem(4 bytes @ 0x40023C04)
T69C0 003:913.806   CPU_WriteMem(4 bytes @ 0x40023C04)
T69C0 003:913.835   CPU_WriteMem(4 bytes @ 0x40023C10)
T69C0 003:913.862   CPU_ReadMem(4 bytes @ 0x40023C0C)
T69C0 003:914.509   CPU_ReadMem(4 bytes @ 0x40023C10)
T69C0 003:914.746   CPU_WriteMem(4 bytes @ 0x40023C10)
T69C0 003:915.004    -- Restoring target memory
T69C0 003:936.862    -- Restoring CPU registers
T69C0 003:936.946    -- End of restoring
T69C0 003:944.007   CPU_WriteMem(4 bytes @ 0xE0002000)
T69C0 003:944.332   CPU_ReadMem(4 bytes @ 0xE0002008)
T69C0 003:945.128   CPU_WriteMem(4 bytes @ 0xE000EDF4)
T69C0 003:946.498   CPU_ReadMem(4 bytes @ 0xE000EDF8)
T69C0 003:946.776   CPU_WriteMem(4 bytes @ 0xE0002008)
T69C0 003:947.071   CPU_WriteMem(4 bytes @ 0xE000EDF8)
T69C0 003:947.334   CPU_WriteMem(4 bytes @ 0xE000EDF4)
T69C0 003:948.769   CPU_WriteMem(4 bytes @ 0xE000EDF0)
T69C0 003:949.006   CPU_WriteMem(4 bytes @ 0xE000EDF0)
T69C0 003:949.224   CPU_ReadMem(4 bytes @ 0xE000EDF0)
T69C0 003:949.662   CPU_WriteMem(4 bytes @ 0xE000EDF0)
T69C0 003:949.900   CPU_WriteMem(4 bytes @ 0xE0002008)
T69C0 003:950.147   CPU_WriteMem(4 bytes @ 0xE000EDF8)
T69C0 003:950.375   CPU_WriteMem(4 bytes @ 0xE000EDF4)
T69C0 003:950.594   CPU_WriteMem(4 bytes @ 0xE0002000)
T69C0 003:951.173   CPU_WriteMem(4 bytes @ 0xE0002000)
T69C0 003:951.510   CPU_WriteMem(4 bytes @ 0xE0002000)
T69C0 003:951.742   CPU_WriteMem(4 bytes @ 0xE0002000)
T69C0 003:952.010   CPU_WriteMem(4 bytes @ 0xE0002000)
T69C0 003:952.249   CPU_WriteMem(4 bytes @ 0xE0002000)
T69C0 003:952.528   CPU_ReadMem(4 bytes @ 0xE0001000)
T69C0 003:952.788   CPU_WriteMem(4 bytes @ 0xE0002008)
T69C0 003:952.810   CPU_WriteMem(4 bytes @ 0xE000200C)
T69C0 003:952.831   CPU_WriteMem(4 bytes @ 0xE0002010)
T69C0 003:952.846   CPU_WriteMem(4 bytes @ 0xE0002014)
T69C0 003:952.861   CPU_WriteMem(4 bytes @ 0xE0002018)
T69C0 003:952.876   CPU_WriteMem(4 bytes @ 0xE000201C)
T69C0 003:955.546 - 405.520ms 
T69C0 004:056.150 JLINK_HasError()
T69C0 004:056.230 JLINK_IsHalted()
T69C0 004:058.220 - 1.990ms returns TRUE
T69C0 004:058.238 JLINK_HasError()
T69C0 004:058.250 JLINK_Halt()
T69C0 004:058.261 - 0.010ms returns 0x00
T69C0 004:058.272 JLINK_IsHalted()
T69C0 004:058.282 - 0.009ms returns TRUE
T69C0 004:058.294 JLINK_IsHalted()
T69C0 004:058.304 - 0.010ms returns TRUE
T69C0 004:058.315 JLINK_IsHalted()
T69C0 004:058.325 - 0.009ms returns TRUE
T69C0 004:058.337 JLINK_HasError()
T69C0 004:058.350 JLINK_ReadReg(R15 (PC))
T69C0 004:058.360 - 0.011ms returns 0x080032C0
T69C0 004:058.372 JLINK_ReadReg(XPSR)
T69C0 004:058.384 - 0.011ms returns 0x61000000
T69C0 004:058.426 JLINK_HasError()
T69C0 004:058.438 JLINK_ClrBPEx(BPHandle = 0x0000000A)
T69C0 004:058.449 - 0.010ms returns 0x00
T69C0 004:058.461 JLINK_HasError()
T69C0 004:058.472 JLINK_ClrBPEx(BPHandle = 0x0000000B)
T69C0 004:058.482 - 0.010ms returns 0x00
T69C0 004:058.492 JLINK_HasError()
T69C0 004:058.503 JLINK_ClrBPEx(BPHandle = 0x0000000C)
T69C0 004:058.513 - 0.010ms returns 0x00
T69C0 004:058.524 JLINK_HasError()
T69C0 004:058.537 JLINK_ClrBPEx(BPHandle = 0x0000000D)
T69C0 004:058.546 - 0.009ms returns 0x00
T69C0 004:058.556 JLINK_HasError()
T69C0 004:058.566 JLINK_ClrBPEx(BPHandle = 0x0000000E)
T69C0 004:058.576 - 0.009ms returns 0x00
T69C0 004:058.588 JLINK_HasError()
T69C0 004:058.599 JLINK_ClrBPEx(BPHandle = 0x0000000F)
T69C0 004:058.608 - 0.009ms returns 0x00
T69C0 004:058.618 JLINK_HasError()
T69C0 004:058.628 JLINK_ClrBPEx(BPHandle = 0x00000010)
T69C0 004:058.637 - 0.009ms returns 0x00
T69C0 004:058.647 JLINK_HasError()
T69C0 004:058.657 JLINK_ClrBPEx(BPHandle = 0x00000011)
T69C0 004:058.667 - 0.009ms returns 0x00
T69C0 004:058.676 JLINK_HasError()
T69C0 004:058.686 JLINK_HasError()
T69C0 004:058.697 JLINK_ReadMemU32(0xE000ED30, 0x1 Items)
T69C0 004:058.711   CPU_ReadMem(4 bytes @ 0xE000ED30)
T69C0 004:058.920   Data:  02 00 00 00
T69C0 004:058.936 - 0.239ms returns 1 (0x1)
T69C0 004:058.947 JLINK_ReadMemU32(0xE0001028, 0x1 Items)
T69C0 004:058.959   CPU_ReadMem(4 bytes @ 0xE0001028)
T69C0 004:059.174   Data:  00 00 00 00
T69C0 004:059.203   Debug reg: DWT_FUNC[0]
T69C0 004:059.218 - 0.270ms returns 1 (0x1)
T69C0 004:059.229 JLINK_ReadMemU32(0xE0001038, 0x1 Items)
T69C0 004:059.242   CPU_ReadMem(4 bytes @ 0xE0001038)
T69C0 004:059.475   Data:  00 02 00 00
T69C0 004:059.491   Debug reg: DWT_FUNC[1]
T69C0 004:059.506 - 0.277ms returns 1 (0x1)
T69C0 004:059.518 JLINK_ReadMemU32(0xE0001048, 0x1 Items)
T69C0 004:059.529   CPU_ReadMem(4 bytes @ 0xE0001048)
T69C0 004:059.749   Data:  00 00 00 00
T69C0 004:059.774   Debug reg: DWT_FUNC[2]
T69C0 004:059.790 - 0.272ms returns 1 (0x1)
T69C0 004:059.803 JLINK_ReadMemU32(0xE0001058, 0x1 Items)
T69C0 004:059.816   CPU_ReadMem(4 bytes @ 0xE0001058)
T69C0 004:060.099   Data:  00 00 00 00
T69C0 004:060.116   Debug reg: DWT_FUNC[3]
T69C0 004:060.131 - 0.327ms returns 1 (0x1)
T69C0 004:060.164 JLINK_HasError()
T69C0 004:060.176 JLINK_ReadReg(R0)
T69C0 004:060.187 - 0.010ms returns 0x200007E8
T69C0 004:060.198 JLINK_ReadReg(R1)
T69C0 004:060.208 - 0.010ms returns 0x20000000
T69C0 004:060.219 JLINK_ReadReg(R2)
T69C0 004:060.229 - 0.010ms returns 0x2000052C
T69C0 004:060.240 JLINK_ReadReg(R3)
T69C0 004:060.250 - 0.010ms returns 0x2000052C
T69C0 004:060.260 JLINK_ReadReg(R4)
T69C0 004:060.271 - 0.010ms returns 0x00000000
T69C0 004:060.281 JLINK_ReadReg(R5)
T69C0 004:060.292 - 0.010ms returns 0x20004460
T69C0 004:060.302 JLINK_ReadReg(R6)
T69C0 004:060.312 - 0.010ms returns 0x00000000
T69C0 004:060.323 JLINK_ReadReg(R7)
T69C0 004:060.333 - 0.010ms returns 0x00000000
T69C0 004:060.344 JLINK_ReadReg(R8)
T69C0 004:060.354 - 0.010ms returns 0x00000000
T69C0 004:060.365 JLINK_ReadReg(R9)
T69C0 004:060.375 - 0.010ms returns 0x00000000
T69C0 004:060.392 JLINK_ReadReg(R10)
T69C0 004:060.402 - 0.010ms returns 0x080046F0
T69C0 004:060.413 JLINK_ReadReg(R11)
T69C0 004:060.425 - 0.012ms returns 0x00000000
T69C0 004:060.435 JLINK_ReadReg(R12)
T69C0 004:060.444 - 0.009ms returns 0x00000000
T69C0 004:060.454 JLINK_ReadReg(R13 (SP))
T69C0 004:060.464 - 0.009ms returns 0x20004AC0
T69C0 004:060.474 JLINK_ReadReg(R14)
T69C0 004:060.484 - 0.009ms returns 0x0800346F
T69C0 004:060.493 JLINK_ReadReg(R15 (PC))
T69C0 004:060.503 - 0.009ms returns 0x080032C0
T69C0 004:060.514 JLINK_ReadReg(XPSR)
T69C0 004:060.524 - 0.010ms returns 0x61000000
T69C0 004:060.535 JLINK_ReadReg(MSP)
T69C0 004:060.547 - 0.012ms returns 0x20004AC0
T69C0 004:060.557 JLINK_ReadReg(PSP)
T69C0 004:060.568 - 0.011ms returns 0x00000000
